#  HZ   S   RI   R     50.00 
! Rohde & Schwarz Vector Network Analyzer 
! Rohde-Schwarz,ZNB8-4Port,1311601044101820,2.80
! Created: UTC 1/20/2020, 11:30:59 AM
! freq[Hz]                re:S11                  im:S11                  re:S21                  im:S21                  re:S12                  im:S12                  re:S22                  im:S22
 1.000000000000000E5     3.495152051642414E-4    4.474748556071717E-4    9.991259606747108E-1    7.469750319304622E-4    9.990504057762604E-1    7.843657153309841E-4    9.708424365223317E-4    4.650108359366967E-4
 6.349875000000000E6     5.916621160134972E-4   -1.751460877239260E-3    9.984832130836903E-1   -2.843151426210061E-2    9.980371562170096E-1   -2.782404889800242E-2    1.411485680542800E-3   -1.796132976187154E-3
 1.259975000000000E7     4.291263353129390E-4   -3.122975189044294E-3    9.965520165498990E-1   -5.481866348350930E-2    9.960594762023829E-1   -5.482885322108591E-2    7.737891764911971E-4   -3.159348561647752E-3
 1.884962500000000E7     9.867903053615915E-4   -4.776759141837686E-3    9.949732318553013E-1   -8.207646914621278E-2    9.942872607388003E-1   -8.258523074436062E-2    9.101554165524342E-4   -4.610615768656600E-3
 2.509950000000000E7     1.608728326105959E-3   -5.703798867407010E-3    9.902511193261786E-1   -1.090464211185124E-1    9.904376053132804E-1   -1.075118697171951E-1    1.046414595533646E-3   -5.413742295647096E-3
 3.134937500000000E7    -4.897287790373399E-4   -8.482331503073065E-3    9.881780067226782E-1   -1.354610462764411E-1    9.863685476055178E-1   -1.348472688767929E-1   -4.996355513887246E-5   -7.905388475585327E-3
 3.759925000000000E7    -1.051835591029287E-3   -9.885633924666161E-3    9.828869110637890E-1   -1.620212101246587E-1    9.822720071444661E-1   -1.597432943808003E-1   -5.814775755298258E-4   -1.003491522587694E-2
 4.384912500000000E7    -9.515536246330301E-4   -1.092494069357931E-2    9.796236738728477E-1   -1.877557143225941E-1    9.778117006273907E-1   -1.873181745442140E-1   -1.305692629412474E-3   -1.094018664946100E-2
 5.009900000000000E7    -2.244530654440947E-3   -1.287976770144232E-2    9.731998100881734E-1   -2.132615969499251E-1    9.711663214218022E-1   -2.132641782876223E-1   -1.787186431298292E-3   -1.297112713560334E-2
 5.634887500000000E7    -3.281345072867599E-3   -1.455290248518881E-2    9.678028839665038E-1   -2.400330364216046E-1    9.649223505037423E-1   -2.391120840775204E-1   -2.601092263303788E-3   -1.383622098950493E-2
 6.259875000000000E7    -3.545615150759116E-3   -1.539563263048824E-2    9.600163771859237E-1   -2.655798220371757E-1    9.585855003574720E-1   -2.645174831039259E-1   -3.679310816825474E-3   -1.543822244004029E-2
 6.884862500000000E7    -4.778822691684129E-3   -1.735564805204068E-2    9.518940413484678E-1   -2.910890437759540E-1    9.503106066067723E-1   -2.905599174204375E-1   -4.758031506469765E-3   -1.718114251612418E-2
 7.509850000000000E7    -5.497316337572576E-3   -1.845927748511211E-2    9.440434976328331E-1   -3.154078413534939E-1    9.427445975256906E-1   -3.150961877939582E-1   -5.687923297217991E-3   -1.860569993357369E-2
 8.134837500000000E7    -6.543355049692029E-3   -1.953184070907017E-2    9.348118559611484E-1   -3.405477700267605E-1    9.332488566850749E-1   -3.399263992430457E-1   -6.205139315666408E-3   -1.959327388815837E-2
 8.759825000000000E7    -8.315242104216183E-3   -2.073130021581003E-2    9.243002335764091E-1   -3.654259896173180E-1    9.239205787149672E-1   -3.645236673272478E-1   -7.886601884928107E-3   -2.043267539912093E-2
 9.384812500000000E7    -9.358327879095827E-3   -2.168646199701119E-2    9.136943488670245E-1   -3.897427427837409E-1    9.136765407423844E-1   -3.887529537282862E-1   -9.006481347867069E-3   -2.164993881542568E-2
 1.000980000000000E8    -1.005036511887892E-2   -2.303294861350422E-2    9.030672552372581E-1   -4.135288180398608E-1    9.025830125734311E-1   -4.128311430430969E-1   -1.016464644977315E-2   -2.276145713398628E-2
 1.063478750000000E8    -1.162929997364800E-2   -2.343975275959144E-2    8.920878728841161E-1   -4.367895657498456E-1    8.908874386870626E-1   -4.367851968502582E-1   -1.165812145052373E-2   -2.361306493258085E-2
 1.125977500000000E8    -1.270686699985485E-2   -2.460230142493600E-2    8.790686326534212E-1   -4.609696266850870E-1    8.782661043248451E-1   -4.600404169514070E-1   -1.223094537088557E-2   -2.483801421668891E-2
 1.188476250000000E8    -1.397351807969489E-2   -2.588911826214673E-2    8.661628896520999E-1   -4.835352933526961E-1    8.657866894408703E-1   -4.827742482236906E-1   -1.419533362175127E-2   -2.566446112408425E-2
 1.250975000000000E8    -1.554249181346454E-2   -2.625565160585488E-2    8.518670598408877E-1   -5.059223804247537E-1    8.521468528638362E-1   -5.058761472831489E-1   -1.534067719001635E-2   -2.634854248659529E-2
 1.313473750000000E8    -1.680478600883502E-2   -2.776737171671560E-2    8.381733798062589E-1   -5.285134206766063E-1    8.384227186758619E-1   -5.278131568918092E-1   -1.673508259973910E-2   -2.722456186352837E-2
 1.375972500000000E8    -1.792844157569336E-2   -2.835021773498056E-2    8.234967627052570E-1   -5.505657105945452E-1    8.232748961439189E-1   -5.496297055993501E-1   -1.866406339107178E-2   -2.832431728414552E-2
 1.438471250000000E8    -1.966985980447421E-2   -2.889005028038344E-2    8.080973012702697E-1   -5.718017321522415E-1    8.078164009278244E-1   -5.712139991945324E-1   -2.011402769803007E-2   -2.900026319465997E-2
 1.500970000000000E8    -2.105331960982503E-2   -2.910711686994995E-2    7.925847763105578E-1   -5.929428603421849E-1    7.921664906094073E-1   -5.916403180959999E-1   -2.159485161236541E-2   -2.936425064884299E-2
 1.563468750000000E8    -2.279921736651474E-2   -3.020747050872247E-2    7.758334471260294E-1   -6.134513897702530E-1    7.758204060320254E-1   -6.127794976012079E-1   -2.266605711415400E-2   -2.922914193550791E-2
 1.625967500000000E8    -2.484871653882407E-2   -2.911683617218031E-2    7.589004930325241E-1   -6.333674037919477E-1    7.587969510265195E-1   -6.323054387237084E-1   -2.437996720575301E-2   -2.967276158952211E-2
 1.688466250000000E8    -2.595183196646869E-2   -2.878348056680414E-2    7.422408852976534E-1   -6.525728633914857E-1    7.418653625962023E-1   -6.527527808844207E-1   -2.663847719055836E-2   -2.958007138167504E-2
 1.750965000000000E8    -2.711223079291464E-2   -2.877249663129158E-2    7.240034229195299E-1   -6.719649155682191E-1    7.237793252973501E-1   -6.709119492810086E-1   -2.812747909385748E-2   -2.942168584041944E-2
 1.813463750000000E8    -2.874315823964152E-2   -2.875762152193714E-2    7.061220508130404E-1   -6.905459372233416E-1    7.055377752342614E-1   -6.896815989447723E-1   -2.846680868060106E-2   -2.969162271580428E-2
 1.875962500000000E8    -3.058137069171935E-2   -2.861110824540894E-2    6.871696432407703E-1   -7.087159492989706E-1    6.872094861642941E-1   -7.081061973928124E-1   -3.056129860640427E-2   -2.919016896831869E-2
 1.938461250000000E8    -3.190278163082956E-2   -2.780895460899495E-2    6.674753099261551E-1   -7.267482365317525E-1    6.675919272130112E-1   -7.252295941818998E-1   -3.219333940257497E-2   -2.907882410804264E-2
 2.000960000000000E8    -3.234054098614529E-2   -2.668572968726809E-2    6.483319434164512E-1   -7.438614664640647E-1    6.479540192031096E-1   -7.425734784496740E-1   -3.326009624448911E-2   -2.855308275793673E-2
 2.063458750000000E8    -3.435049082189071E-2   -2.669481037641437E-2    6.279003552034305E-1   -7.596144107543058E-1    6.282532878033299E-1   -7.592105289686796E-1   -3.415163496969172E-2   -2.855740970721368E-2
 2.125957500000000E8    -3.533541669384602E-2   -2.584028551372727E-2    6.071452021139852E-1   -7.754257562558863E-1    6.073676086333512E-1   -7.757475485896520E-1   -3.509289646674592E-2   -2.695548992127868E-2
 2.188456250000000E8    -3.576995419103404E-2   -2.595685763346083E-2    5.866574339987490E-1   -7.908809651748386E-1    5.859981743345889E-1   -7.900852836011570E-1   -3.578613569119811E-2   -2.680781132779180E-2
 2.250955000000000E8    -3.716460507960025E-2   -2.493161294339370E-2    5.644006283467166E-1   -8.058773464087015E-1    5.650336456607148E-1   -8.048881377310035E-1   -3.721578549847351E-2   -2.634174959985594E-2
 2.313453750000000E8    -3.838161710177896E-2   -2.466168284651977E-2    5.428880861056719E-1   -8.196810339782801E-1    5.431479016398676E-1   -8.195629672710644E-1   -3.841621997273140E-2   -2.563916768650888E-2
 2.375952500000000E8    -3.954381665112036E-2   -2.400392084781036E-2    5.208393619041001E-1   -8.337395911209887E-1    5.214064180688003E-1   -8.329748368647280E-1   -3.955384066356109E-2   -2.468227173392636E-2
 2.438451250000000E8    -4.032137107040543E-2   -2.367469480361618E-2    4.989712165449036E-1   -8.466780526762820E-1    4.992290985964412E-1   -8.461273724288411E-1   -4.044616975224226E-2   -2.506360036929220E-2
 2.500950000000000E8    -4.150941611022404E-2   -2.255171724979409E-2    4.766392835693952E-1   -8.592966216412522E-1    4.768361302598288E-1   -8.594531480248220E-1   -4.198586916233686E-2   -2.251029609220002E-2
 2.563448750000000E8    -4.349633634804719E-2   -2.196246439117675E-2    4.530573207907557E-1   -8.716740706411258E-1    4.536562368159015E-1   -8.708486586784088E-1   -4.265369745001711E-2   -2.130516720210660E-2
 2.625947500000000E8    -4.444857839352717E-2   -2.062593557560929E-2    4.301598880207324E-1   -8.826315652441418E-1    4.302383534186727E-1   -8.821945815481461E-1   -4.376519158533630E-2   -2.089300051674498E-2
 2.688446250000000E8    -4.525867979082743E-2   -1.976095232777343E-2    4.062493307870631E-1   -8.931898972197520E-1    4.070452798480828E-1   -8.933237378440715E-1   -4.535384982815972E-2   -1.937707188180266E-2
 2.750945000000000E8    -4.649900960490353E-2   -1.800536434290450E-2    3.832467357887965E-1   -9.033207369557833E-1    3.832418464743476E-1   -9.031713410390813E-1   -4.526261434062169E-2   -1.857687805856775E-2
 2.813443750000000E8    -4.699780068393163E-2   -1.723775489141883E-2    3.587256375116578E-1   -9.133516731128943E-1    3.591946265172126E-1   -9.126990269195666E-1   -4.607919446280880E-2   -1.664922319143921E-2
 2.875942500000000E8    -4.720506859729326E-2   -1.546438462279031E-2    3.344413682762696E-1   -9.220229928782603E-1    3.343144373045284E-1   -9.217061926043307E-1   -4.695759986478310E-2   -1.605749228593290E-2
 2.938441250000000E8    -4.827084097341584E-2   -1.373124543297835E-2    3.090684452431237E-1   -9.296095402413476E-1    3.103804783945562E-1   -9.293445283259505E-1   -4.756135389877329E-2   -1.407122788588055E-2
 3.000940000000000E8    -4.820964620878790E-2   -1.238514657164213E-2    2.847682628198341E-1   -9.379384876063241E-1    2.852329505709439E-1   -9.371389471108245E-1   -4.795783364885847E-2   -1.293199045990424E-2
 3.063438750000000E8    -4.873717188422336E-2   -1.135918557588699E-2    2.594986159351969E-1   -9.440468018668200E-1    2.594761204330608E-1   -9.444629747384624E-1   -4.853970653765384E-2   -1.105495793674750E-2
 3.125937500000000E8    -4.941909208929786E-2   -1.052395978574156E-2    2.350706072940967E-1   -9.510694200611612E-1    2.358418876136617E-1   -9.505662827451104E-1   -4.954338806472513E-2   -1.033354192265439E-2
 3.188436250000000E8    -4.860663301214076E-2   -8.578661576200143E-3    2.093180764449882E-1   -9.569129845462209E-1    2.099405962526635E-1   -9.559640775169523E-1   -4.916899111043568E-2   -8.721208445947856E-3
 3.250935000000000E8    -4.925382634439491E-2   -6.957311411861400E-3    1.841531888348155E-1   -9.616948749287184E-1    1.838927514162243E-1   -9.614039604113711E-1   -4.964344667394516E-2   -7.547525570780304E-3
 3.313433750000000E8    -4.918872009233728E-2   -5.913784327947661E-3    1.587232300446474E-1   -9.657861701086441E-1    1.590432275771086E-1   -9.652211562927598E-1   -4.976806116647587E-2   -5.592895664245143E-3
 3.375932500000000E8    -4.862569095729356E-2   -4.812577619718372E-3    1.325385510518257E-1   -9.693892077716979E-1    1.326786771005290E-1   -9.686865106740081E-1   -4.925430097036193E-2   -4.415023060129523E-3
 3.438431250000000E8    -4.787850059516289E-2   -3.744901131892006E-3    1.062380480112783E-1   -9.722469261232629E-1    1.073493165693085E-1   -9.714370167823605E-1   -4.894781587130141E-2   -3.227791855391543E-3
 3.500930000000000E8    -4.812254432761944E-2   -1.726946222527920E-3    8.052846007776400E-2   -9.744373701819072E-1    8.124399292231704E-2   -9.744139802751893E-1   -4.864711081925370E-2   -1.210179138002931E-3
 3.563428750000000E8    -4.693849428392740E-2   -1.006277884281854E-3    5.530005388484252E-2   -9.761955709996008E-1    5.519013277177909E-2   -9.752851590456001E-1   -4.844567245804337E-2   -7.389156665636512E-4
 3.625927500000000E8    -4.677263868956182E-2    2.095563030407718E-4    2.928160222033865E-2   -9.771300865980460E-1    2.939307378657408E-2   -9.762119379494221E-1   -4.774009204483980E-2    2.077552957953366E-4
 3.688426250000000E8    -4.611279901642075E-2    1.773189569383354E-3    3.767186957947362E-3   -9.764209086987365E-1    3.999321552854740E-3   -9.765565759175627E-1   -4.739232836257321E-2    2.128954965688113E-3
 3.750925000000000E8    -4.520864612435355E-2    2.268457715718965E-3   -2.190076107942733E-2   -9.768193734865563E-1   -2.210744317200178E-2   -9.760334703548088E-1   -4.606067645596884E-2    3.322683030572969E-3
 3.813423750000000E8    -4.513415310283005E-2    4.193662481678764E-3   -4.882713590380788E-2   -9.753662104399120E-1   -4.791272001808196E-2   -9.746360222663492E-1   -4.585906263988801E-2    3.880004025778268E-3
 3.875922500000000E8    -4.336644491026510E-2    5.297727439470712E-3   -7.524285831849720E-2   -9.737206276968319E-1   -7.421583718047677E-2   -9.721759584762764E-1   -4.529952837407506E-2    4.994509460401895E-3
 3.938421250000000E8    -4.307454628169016E-2    6.192899466103047E-3   -1.006372344318776E-1   -9.711947487961807E-1   -1.004834097410352E-1   -9.704587576392174E-1   -4.386173599064432E-2    6.112204731979751E-3
 4.000920000000000E8    -4.241598504114272E-2    7.081783346133089E-3   -1.271276982435525E-1   -9.680233202743226E-1   -1.256986615480881E-1   -9.668415118474332E-1   -4.326442259046413E-2    6.961866003504000E-3
 4.063418750000000E8    -4.149383031605532E-2    8.132301682525135E-3   -1.524721165714613E-1   -9.629398384817428E-1   -1.519461506775487E-1   -9.625577766588847E-1   -4.258163193468880E-2    7.635542323336297E-3
 4.125917500000000E8    -3.940064135809792E-2    8.887826524592024E-3   -1.780523255117970E-1   -9.586837465318465E-1   -1.775229304408774E-1   -9.580845665968523E-1   -4.126778407815356E-2    8.067056678287929E-3
 4.188416250000000E8    -3.913391122946275E-2    1.044024645497099E-2   -2.030710897090052E-1   -9.532813539043769E-1   -2.036849324570424E-1   -9.534197444525129E-1   -4.046748557818285E-2    9.754904640582412E-3
 4.250915000000000E8    -3.785858056049455E-2    1.146208641316860E-2   -2.287493663761343E-1   -9.474117796987660E-1   -2.279996740746952E-1   -9.464304117911476E-1   -3.811489267027932E-2    1.040133133843455E-2
 4.313413750000000E8    -3.688259612468616E-2    1.314326094336258E-2   -2.533560700452321E-1   -9.405419760381056E-1   -2.529785944597670E-1   -9.403895167720032E-1   -3.693545057818042E-2    1.122502814547158E-2
 4.375912500000000E8    -3.444980069993479E-2    1.311168282516272E-2   -2.792696901208127E-1   -9.325787633005549E-1   -2.782185144695998E-1   -9.325826717646933E-1   -3.543479056776548E-2    1.179960735550294E-2
 4.438411250000000E8    -3.360963701580417E-2    1.387315534143779E-2   -3.034045460916158E-1   -9.253124996254061E-1   -3.038983500570059E-1   -9.245169833066697E-1   -3.407228136079003E-2    1.276487192056411E-2
 4.500910000000000E8    -3.187268442739326E-2    1.408792333433028E-2   -3.272081231735171E-1   -9.163314593102089E-1   -3.283233220121163E-1   -9.160780570385919E-1   -3.265097096962210E-2    1.323845342564595E-2
 4.563408750000000E8    -3.004731503620408E-2    1.490573792453330E-2   -3.530539110363876E-1   -9.060686642810097E-1   -3.515627452900505E-1   -9.063361170033484E-1   -3.072586792599098E-2    1.415260860184371E-2
 4.625907500000000E8    -2.844360909456897E-2    1.482949552205319E-2   -3.758698761485199E-1   -8.968021437963450E-1   -3.762095831574609E-1   -8.965351101756469E-1   -2.952781422385731E-2    1.404619820229095E-2
 4.688406250000000E8    -2.708464532755046E-2    1.522686648223182E-2   -3.994332225143933E-1   -8.858066312107601E-1   -3.995687501230881E-1   -8.858089105601599E-1   -2.689124981379109E-2    1.460914952058351E-2
 4.750905000000000E8    -2.488747942569427E-2    1.523079641278834E-2   -4.236079358133454E-1   -8.745429027385919E-1   -4.228644422453476E-1   -8.744531484162139E-1   -2.567456428242844E-2    1.468251259751320E-2
 4.813403750000000E8    -2.307069527274246E-2    1.549662630220947E-2   -4.461730757826176E-1   -8.633730513169871E-1   -4.467373104103671E-1   -8.628013386855191E-1   -2.372562845176545E-2    1.480039984735587E-2
 4.875902500000000E8    -2.130298058309397E-2    1.500561588888040E-2   -4.689367733831618E-1   -8.512161847275670E-1   -4.692768006192919E-1   -8.498743665996230E-1   -2.162697480994203E-2    1.490615713378496E-2
 4.938401250000000E8    -1.959155175985269E-2    1.535840485290536E-2   -4.923521089601056E-1   -8.373652279941977E-1   -4.918139569691268E-1   -8.368005499284814E-1   -2.047450402520702E-2    1.438385463201361E-2
 5.000900000000000E8    -1.761121097407003E-2    1.413777051169721E-2   -5.145616599013951E-1   -8.242565456260995E-1   -5.136558585030878E-1   -8.234451198955497E-1   -1.847948887288814E-2    1.367453202934764E-2
 5.063398750000000E8    -1.596995616833558E-2    1.381793249388823E-2   -5.373980564493258E-1   -8.098251185299520E-1   -5.365626800250711E-1   -8.091575780330957E-1   -1.676734784544777E-2    1.333961927390517E-2
 5.125897500000000E8    -1.453833817241024E-2    1.355226253770161E-2   -5.581209161540306E-1   -7.947277993096580E-1   -5.569705784559454E-1   -7.939627458995828E-1   -1.588518525080120E-2    1.280450060077895E-2
 5.188396250000000E8    -1.313423663251605E-2    1.242619077505973E-2   -5.792857092362004E-1   -7.800731404697517E-1   -5.783273531712244E-1   -7.784278271604097E-1   -1.359456653758763E-2    1.223317289277234E-2
 5.250895000000000E8    -1.072068191216137E-2    1.242527299487526E-2   -6.000379080078424E-1   -7.625725486073844E-1   -5.996307292108757E-1   -7.623576602321128E-1   -1.205104951364643E-2    1.140671911999978E-2
 5.313393750000000E8    -9.196080032254309E-3    1.051695455796321E-2   -6.200600941784424E-1   -7.456352501392983E-1   -6.199501822902842E-1   -7.456998791208936E-1   -1.091382753349260E-2    1.078197082610257E-2
 5.375892500000000E8    -7.783189349562705E-3    1.030971526681104E-2   -6.397858749028372E-1   -7.288938496093613E-1   -6.394172915730214E-1   -7.283672241426116E-1   -9.557127211639649E-3    9.451931145750665E-3
 5.438391250000000E8    -6.327185099578116E-3    9.252723288664003E-3   -6.601166153823591E-1   -7.111301561986332E-1   -6.590453754391055E-1   -7.104718248093765E-1   -7.287086060351375E-3    8.814514239388714E-3
 5.500890000000000E8    -5.204152807570438E-3    8.279673707706877E-3   -6.787508914602842E-1   -6.929051856505378E-1   -6.779802877025984E-1   -6.922667798599520E-1   -6.235935263108471E-3    7.710909081328879E-3
 5.563388750000000E8    -2.492775262381647E-3    6.234507251164040E-3   -6.967376802543006E-1   -6.733840611335796E-1   -6.962630022722351E-1   -6.738278947145227E-1   -4.502915611647035E-3    5.994573224844722E-3
 5.625887500000000E8    -2.186389092763724E-3    5.559766040223808E-3   -7.143765517052871E-1   -6.545098623666745E-1   -7.145742171175842E-1   -6.541321090071566E-1   -2.703188248452039E-3    4.738665608411184E-3
