! Generated by a Qucs-RFlayout generated OpenEMS script
#   Hz   S  RI   R   50
! 
1.000000e+08   -1.026161e-01  3.397379e-04    7.639774e-01 -4.872946e-01    0.000000e+00  0.000000e+00    0.000000e+00  0.000000e+00
1.061327e+08   -1.039368e-01  3.362774e-04    7.465661e-01 -5.136146e-01    0.000000e+00  0.000000e+00    0.000000e+00  0.000000e+00
1.122653e+08   -1.054069e-01  4.167969e-04    7.282465e-01 -5.393283e-01    0.000000e+00  0.000000e+00    0.000000e+00  0.000000e+00
1.183980e+08   -1.070224e-01  6.016076e-04    7.090362e-01 -5.644053e-01    0.000000e+00  0.000000e+00    0.000000e+00  0.000000e+00
1.245307e+08   -1.087763e-01  9.107146e-04    6.889538e-01 -5.888150e-01    0.000000e+00  0.000000e+00    0.000000e+00  0.000000e+00
1.306633e+08   -1.106587e-01  1.363380e-03    6.680188e-01 -6.125266e-01    0.000000e+00  0.000000e+00    0.000000e+00  0.000000e+00
1.367960e+08   -1.126570e-01  1.977702e-03    6.462517e-01 -6.355089e-01    0.000000e+00  0.000000e+00    0.000000e+00  0.000000e+00
1.429287e+08   -1.147561e-01  2.770217e-03    6.236744e-01 -6.577306e-01    0.000000e+00  0.000000e+00    0.000000e+00  0.000000e+00
1.490613e+08   -1.169388e-01  3.755541e-03    6.003104e-01 -6.791604e-01    0.000000e+00  0.000000e+00    0.000000e+00  0.000000e+00
1.551940e+08   -1.191856e-01  4.946038e-03    5.761846e-01 -6.997669e-01    0.000000e+00  0.000000e+00    0.000000e+00  0.000000e+00
1.613267e+08   -1.214757e-01  6.351549e-03    5.513242e-01 -7.195189e-01    0.000000e+00  0.000000e+00    0.000000e+00  0.000000e+00
1.674593e+08   -1.237867e-01  7.979161e-03    5.257581e-01 -7.383856e-01    0.000000e+00  0.000000e+00    0.000000e+00  0.000000e+00
1.735920e+08   -1.260956e-01  9.833042e-03    4.995175e-01 -7.563370e-01    0.000000e+00  0.000000e+00    0.000000e+00  0.000000e+00
1.797247e+08   -1.283789e-01  1.191434e-02    4.726357e-01 -7.733439e-01    0.000000e+00  0.000000e+00    0.000000e+00  0.000000e+00
1.858573e+08   -1.306132e-01  1.422113e-02    4.451482e-01 -7.893784e-01    0.000000e+00  0.000000e+00    0.000000e+00  0.000000e+00
1.919900e+08   -1.327756e-01  1.674847e-02    4.170927e-01 -8.044140e-01    0.000000e+00  0.000000e+00    0.000000e+00  0.000000e+00
1.981227e+08   -1.348442e-01  1.948851e-02    3.885089e-01 -8.184265e-01    0.000000e+00  0.000000e+00    0.000000e+00  0.000000e+00
2.042553e+08   -1.367984e-01  2.243063e-02    3.594386e-01 -8.313934e-01    0.000000e+00  0.000000e+00    0.000000e+00  0.000000e+00
2.103880e+08   -1.386193e-01  2.556176e-02    3.299250e-01 -8.432950e-01    0.000000e+00  0.000000e+00    0.000000e+00  0.000000e+00
2.165207e+08   -1.402906e-01  2.886661e-02    3.000128e-01 -8.541142e-01    0.000000e+00  0.000000e+00    0.000000e+00  0.000000e+00
2.226533e+08   -1.417980e-01  3.232814e-02    2.697478e-01 -8.638368e-01    0.000000e+00  0.000000e+00    0.000000e+00  0.000000e+00
2.287860e+08   -1.431302e-01  3.592791e-02    2.391766e-01 -8.724517e-01    0.000000e+00  0.000000e+00    0.000000e+00  0.000000e+00
2.349186e+08   -1.442787e-01  3.964659e-02    2.083459e-01 -8.799510e-01    0.000000e+00  0.000000e+00    0.000000e+00  0.000000e+00
2.410513e+08   -1.452380e-01  4.346444e-02    1.773025e-01 -8.863298e-01    0.000000e+00  0.000000e+00    0.000000e+00  0.000000e+00
2.471840e+08   -1.460054e-01  4.736181e-02    1.460925e-01 -8.915864e-01    0.000000e+00  0.000000e+00    0.000000e+00  0.000000e+00
2.533166e+08   -1.465814e-01  5.131963e-02    1.147613e-01 -8.957221e-01    0.000000e+00  0.000000e+00    0.000000e+00  0.000000e+00
2.594493e+08   -1.469691e-01  5.531992e-02    8.335292e-02 -8.987408e-01    0.000000e+00  0.000000e+00    0.000000e+00  0.000000e+00
2.655820e+08   -1.471737e-01  5.934617e-02    5.190989e-02 -9.006489e-01    0.000000e+00  0.000000e+00    0.000000e+00  0.000000e+00
2.717146e+08   -1.472031e-01  6.338377e-02    2.047280e-02 -9.014549e-01    0.000000e+00  0.000000e+00    0.000000e+00  0.000000e+00
2.778473e+08   -1.470664e-01  6.742032e-02   -1.091975e-02 -9.011692e-01    0.000000e+00  0.000000e+00    0.000000e+00  0.000000e+00
2.839800e+08   -1.467743e-01  7.144581e-02   -4.223130e-02 -8.998031e-01    0.000000e+00  0.000000e+00    0.000000e+00  0.000000e+00
2.901126e+08   -1.463381e-01  7.545287e-02   -7.342759e-02 -8.973693e-01    0.000000e+00  0.000000e+00    0.000000e+00  0.000000e+00
2.962453e+08   -1.457694e-01  7.943671e-02   -1.044765e-01 -8.938808e-01    0.000000e+00  0.000000e+00    0.000000e+00  0.000000e+00
3.023780e+08   -1.450796e-01  8.339520e-02   -1.353479e-01 -8.893506e-01    0.000000e+00  0.000000e+00    0.000000e+00  0.000000e+00
3.085106e+08   -1.442795e-01  8.732867e-02   -1.660134e-01 -8.837916e-01    0.000000e+00  0.000000e+00    0.000000e+00  0.000000e+00
3.146433e+08   -1.433786e-01  9.123972e-02   -1.964463e-01 -8.772161e-01    0.000000e+00  0.000000e+00    0.000000e+00  0.000000e+00
3.207760e+08   -1.423849e-01  9.513298e-02   -2.266210e-01 -8.696356e-01    0.000000e+00  0.000000e+00    0.000000e+00  0.000000e+00
3.269086e+08   -1.413047e-01  9.901468e-02   -2.565127e-01 -8.610606e-01    0.000000e+00  0.000000e+00    0.000000e+00  0.000000e+00
3.330413e+08   -1.401419e-01  1.028923e-01   -2.860972e-01 -8.515005e-01    0.000000e+00  0.000000e+00    0.000000e+00  0.000000e+00
3.391740e+08   -1.388981e-01  1.067743e-01   -3.153503e-01 -8.409639e-01    0.000000e+00  0.000000e+00    0.000000e+00  0.000000e+00
3.453066e+08   -1.375726e-01  1.106692e-01   -3.442474e-01 -8.294581e-01    0.000000e+00  0.000000e+00    0.000000e+00  0.000000e+00
3.514393e+08   -1.361620e-01  1.145855e-01   -3.727633e-01 -8.169898e-01    0.000000e+00  0.000000e+00    0.000000e+00  0.000000e+00
3.575720e+08   -1.346607e-01  1.185313e-01   -4.008717e-01 -8.035648e-01    0.000000e+00  0.000000e+00    0.000000e+00  0.000000e+00
3.637046e+08   -1.330607e-01  1.225134e-01   -4.285451e-01 -7.891888e-01    0.000000e+00  0.000000e+00    0.000000e+00  0.000000e+00
3.698373e+08   -1.313520e-01  1.265373e-01   -4.557545e-01 -7.738675e-01    0.000000e+00  0.000000e+00    0.000000e+00  0.000000e+00
3.759700e+08   -1.295225e-01  1.306067e-01   -4.824690e-01 -7.576069e-01    0.000000e+00  0.000000e+00    0.000000e+00  0.000000e+00
3.821026e+08   -1.275590e-01  1.347231e-01   -5.086561e-01 -7.404138e-01    0.000000e+00  0.000000e+00    0.000000e+00  0.000000e+00
3.882353e+08   -1.254470e-01  1.388855e-01   -5.342817e-01 -7.222964e-01    0.000000e+00  0.000000e+00    0.000000e+00  0.000000e+00
3.943680e+08   -1.231714e-01  1.430904e-01   -5.593096e-01 -7.032643e-01    0.000000e+00  0.000000e+00    0.000000e+00  0.000000e+00
4.005006e+08   -1.207170e-01  1.473317e-01   -5.837026e-01 -6.833293e-01    0.000000e+00  0.000000e+00    0.000000e+00  0.000000e+00
4.066333e+08   -1.180685e-01  1.516003e-01   -6.074218e-01 -6.625058e-01    0.000000e+00  0.000000e+00    0.000000e+00  0.000000e+00
4.127660e+08   -1.152117e-01  1.558846e-01   -6.304276e-01 -6.408107e-01    0.000000e+00  0.000000e+00    0.000000e+00  0.000000e+00
4.188986e+08   -1.121333e-01  1.601703e-01   -6.526797e-01 -6.182641e-01    0.000000e+00  0.000000e+00    0.000000e+00  0.000000e+00
4.250313e+08   -1.088217e-01  1.644406e-01   -6.741378e-01 -5.948896e-01    0.000000e+00  0.000000e+00    0.000000e+00  0.000000e+00
4.311640e+08   -1.052673e-01  1.686767e-01   -6.947618e-01 -5.707140e-01    0.000000e+00  0.000000e+00    0.000000e+00  0.000000e+00
4.372966e+08   -1.014628e-01  1.728577e-01   -7.145124e-01 -5.457676e-01    0.000000e+00  0.000000e+00    0.000000e+00  0.000000e+00
4.434293e+08   -9.740365e-02  1.769615e-01   -7.333518e-01 -5.200844e-01    0.000000e+00  0.000000e+00    0.000000e+00  0.000000e+00
4.495620e+08   -9.308807e-02  1.809647e-01   -7.512438e-01 -4.937015e-01    0.000000e+00  0.000000e+00    0.000000e+00  0.000000e+00
4.556946e+08   -8.851737e-02  1.848435e-01   -7.681548e-01 -4.666593e-01    0.000000e+00  0.000000e+00    0.000000e+00  0.000000e+00
4.618273e+08   -8.369598e-02  1.885738e-01   -7.840539e-01 -4.390011e-01    0.000000e+00  0.000000e+00    0.000000e+00  0.000000e+00
4.679599e+08   -7.863146e-02  1.921320e-01   -7.989133e-01 -4.107727e-01    0.000000e+00  0.000000e+00    0.000000e+00  0.000000e+00
4.740926e+08   -7.333441e-02  1.954954e-01   -8.127088e-01 -3.820218e-01    0.000000e+00  0.000000e+00    0.000000e+00  0.000000e+00
4.802253e+08   -6.781832e-02  1.986425e-01   -8.254199e-01 -3.527979e-01    0.000000e+00  0.000000e+00    0.000000e+00  0.000000e+00
4.863579e+08   -6.209935e-02  2.015535e-01   -8.370303e-01 -3.231514e-01    0.000000e+00  0.000000e+00    0.000000e+00  0.000000e+00
4.924906e+08   -5.619598e-02  2.042109e-01   -8.475274e-01 -2.931333e-01    0.000000e+00  0.000000e+00    0.000000e+00  0.000000e+00
4.986233e+08   -5.012868e-02  2.065996e-01   -8.569028e-01 -2.627945e-01    0.000000e+00  0.000000e+00    0.000000e+00  0.000000e+00
5.047559e+08   -4.391949e-02  2.087072e-01   -8.651520e-01 -2.321852e-01    0.000000e+00  0.000000e+00    0.000000e+00  0.000000e+00
5.108886e+08   -3.759154e-02  2.105243e-01   -8.722741e-01 -2.013546e-01    0.000000e+00  0.000000e+00    0.000000e+00  0.000000e+00
5.170213e+08   -3.116861e-02  2.120444e-01   -8.782717e-01 -1.703502e-01    0.000000e+00  0.000000e+00    0.000000e+00  0.000000e+00
5.231539e+08   -2.467462e-02  2.132642e-01   -8.831502e-01 -1.392176e-01    0.000000e+00  0.000000e+00    0.000000e+00  0.000000e+00
5.292866e+08   -1.813316e-02  2.141831e-01   -8.869178e-01 -1.080001e-01    0.000000e+00  0.000000e+00    0.000000e+00  0.000000e+00
5.354193e+08   -1.156704e-02  2.148038e-01   -8.895847e-01 -7.673828e-02    0.000000e+00  0.000000e+00    0.000000e+00  0.000000e+00
5.415519e+08   -4.997848e-03  2.151312e-01   -8.911626e-01 -4.547016e-02    0.000000e+00  0.000000e+00    0.000000e+00  0.000000e+00
5.476846e+08    1.554382e-03  2.151727e-01   -8.916643e-01 -1.423095e-02    0.000000e+00  0.000000e+00    0.000000e+00  0.000000e+00
5.538173e+08    8.071526e-03  2.149379e-01   -8.911032e-01  1.694684e-02    0.000000e+00  0.000000e+00    0.000000e+00  0.000000e+00
5.599499e+08    1.453760e-02  2.144376e-01   -8.894927e-01  4.803326e-02    0.000000e+00  0.000000e+00    0.000000e+00  0.000000e+00
5.660826e+08    2.093894e-02  2.136843e-01   -8.868457e-01  7.900071e-02    0.000000e+00  0.000000e+00    0.000000e+00  0.000000e+00
5.722153e+08    2.726430e-02  2.126909e-01   -8.831745e-01  1.098236e-01    0.000000e+00  0.000000e+00    0.000000e+00  0.000000e+00
5.783479e+08    3.350487e-02  2.114709e-01   -8.784901e-01  1.404781e-01    0.000000e+00  0.000000e+00    0.000000e+00  0.000000e+00
5.844806e+08    3.965425e-02  2.100375e-01   -8.728023e-01  1.709414e-01    0.000000e+00  0.000000e+00    0.000000e+00  0.000000e+00
5.906133e+08    4.570831e-02  2.084036e-01   -8.661191e-01  2.011918e-01    0.000000e+00  0.000000e+00    0.000000e+00  0.000000e+00
5.967459e+08    5.166497e-02  2.065813e-01   -8.584472e-01  2.312076e-01    0.000000e+00  0.000000e+00    0.000000e+00  0.000000e+00
6.028786e+08    5.752401e-02  2.045811e-01   -8.497915e-01  2.609672e-01    0.000000e+00  0.000000e+00    0.000000e+00  0.000000e+00
6.090113e+08    6.328673e-02  2.024125e-01   -8.401557e-01  2.904482e-01    0.000000e+00  0.000000e+00    0.000000e+00  0.000000e+00
6.151439e+08    6.895562e-02  2.000830e-01   -8.295420e-01  3.196273e-01    0.000000e+00  0.000000e+00    0.000000e+00  0.000000e+00
6.212766e+08    7.453400e-02  1.975985e-01   -8.179516e-01  3.484797e-01    0.000000e+00  0.000000e+00    0.000000e+00  0.000000e+00
6.274093e+08    8.002562e-02  1.949627e-01   -8.053853e-01  3.769790e-01    0.000000e+00  0.000000e+00    0.000000e+00  0.000000e+00
6.335419e+08    8.543428e-02  1.921776e-01   -7.918435e-01  4.050965e-01    0.000000e+00  0.000000e+00    0.000000e+00  0.000000e+00
6.396746e+08    9.076342e-02  1.892430e-01   -7.773268e-01  4.328017e-01    0.000000e+00  0.000000e+00    0.000000e+00  0.000000e+00
6.458073e+08    9.601578e-02  1.861572e-01   -7.618365e-01  4.600615e-01    0.000000e+00  0.000000e+00    0.000000e+00  0.000000e+00
6.519399e+08    1.011930e-01  1.829167e-01   -7.453750e-01  4.868407e-01    0.000000e+00  0.000000e+00    0.000000e+00  0.000000e+00
6.580726e+08    1.062955e-01  1.795168e-01   -7.279464e-01  5.131020e-01    0.000000e+00  0.000000e+00    0.000000e+00  0.000000e+00
6.642053e+08    1.113218e-01  1.759515e-01   -7.095571e-01  5.388059e-01    0.000000e+00  0.000000e+00    0.000000e+00  0.000000e+00
6.703379e+08    1.162688e-01  1.722141e-01   -6.902156e-01  5.639113e-01    0.000000e+00  0.000000e+00    0.000000e+00  0.000000e+00
6.764706e+08    1.211314e-01  1.682976e-01   -6.699338e-01  5.883755e-01    0.000000e+00  0.000000e+00    0.000000e+00  0.000000e+00
6.826033e+08    1.259022e-01  1.641950e-01   -6.487265e-01  6.121548e-01    0.000000e+00  0.000000e+00    0.000000e+00  0.000000e+00
6.887359e+08    1.305720e-01  1.598994e-01   -6.266122e-01  6.352051e-01    0.000000e+00  0.000000e+00    0.000000e+00  0.000000e+00
6.948686e+08    1.351295e-01  1.554049e-01   -6.036131e-01  6.574821e-01    0.000000e+00  0.000000e+00    0.000000e+00  0.000000e+00
7.010013e+08    1.395612e-01  1.507067e-01   -5.797551e-01  6.789419e-01    0.000000e+00  0.000000e+00    0.000000e+00  0.000000e+00
7.071339e+08    1.438521e-01  1.458013e-01   -5.550679e-01  6.995415e-01    0.000000e+00  0.000000e+00    0.000000e+00  0.000000e+00
7.132666e+08    1.479857e-01  1.406873e-01   -5.295848e-01  7.192397e-01    0.000000e+00  0.000000e+00    0.000000e+00  0.000000e+00
7.193992e+08    1.519442e-01  1.353652e-01   -5.033428e-01  7.379970e-01    0.000000e+00  0.000000e+00    0.000000e+00  0.000000e+00
7.255319e+08    1.557088e-01  1.298378e-01   -4.763818e-01  7.557765e-01    0.000000e+00  0.000000e+00    0.000000e+00  0.000000e+00
7.316646e+08    1.592603e-01  1.241105e-01   -4.487451e-01  7.725442e-01    0.000000e+00  0.000000e+00    0.000000e+00  0.000000e+00
7.377972e+08    1.625795e-01  1.181911e-01   -4.204779e-01  7.882693e-01    0.000000e+00  0.000000e+00    0.000000e+00  0.000000e+00
7.439299e+08    1.656471e-01  1.120903e-01   -3.916280e-01  8.029247e-01    0.000000e+00  0.000000e+00    0.000000e+00  0.000000e+00
7.500626e+08    1.684449e-01  1.058212e-01   -3.622443e-01  8.164868e-01    0.000000e+00  0.000000e+00    0.000000e+00  0.000000e+00
7.561952e+08    1.709554e-01  9.939928e-02   -3.323769e-01  8.289360e-01    0.000000e+00  0.000000e+00    0.000000e+00  0.000000e+00
7.623279e+08    1.731630e-01  9.284266e-02   -3.020763e-01  8.402565e-01    0.000000e+00  0.000000e+00    0.000000e+00  0.000000e+00
7.684606e+08    1.750535e-01  8.617138e-02   -2.713932e-01  8.504364e-01    0.000000e+00  0.000000e+00    0.000000e+00  0.000000e+00
7.745932e+08    1.766151e-01  7.940737e-02   -2.403775e-01  8.594674e-01    0.000000e+00  0.000000e+00    0.000000e+00  0.000000e+00
7.807259e+08    1.778381e-01  7.257410e-02   -2.090783e-01  8.673446e-01    0.000000e+00  0.000000e+00    0.000000e+00  0.000000e+00
7.868586e+08    1.787157e-01  6.569619e-02   -1.775431e-01  8.740663e-01    0.000000e+00  0.000000e+00    0.000000e+00  0.000000e+00
7.929912e+08    1.792435e-01  5.879909e-02   -1.458181e-01  8.796334e-01    0.000000e+00  0.000000e+00    0.000000e+00  0.000000e+00
7.991239e+08    1.794202e-01  5.190864e-02   -1.139470e-01  8.840493e-01    0.000000e+00  0.000000e+00    0.000000e+00  0.000000e+00
8.052566e+08    1.792470e-01  4.505066e-02   -8.197176e-02  8.873192e-01    0.000000e+00  0.000000e+00    0.000000e+00  0.000000e+00
8.113892e+08    1.787281e-01  3.825061e-02   -4.993194e-02  8.894499e-01    0.000000e+00  0.000000e+00    0.000000e+00  0.000000e+00
8.175219e+08    1.778703e-01  3.153318e-02   -1.786483e-02  8.904491e-01    0.000000e+00  0.000000e+00    0.000000e+00  0.000000e+00
8.236546e+08    1.766828e-01  2.492193e-02    1.419446e-02  8.903251e-01    0.000000e+00  0.000000e+00    0.000000e+00  0.000000e+00
8.297872e+08    1.751773e-01  1.843899e-02    4.621287e-02  8.890862e-01    0.000000e+00  0.000000e+00    0.000000e+00  0.000000e+00
8.359199e+08    1.733672e-01  1.210480e-02    7.815919e-02  8.867406e-01    0.000000e+00  0.000000e+00    0.000000e+00  0.000000e+00
8.420526e+08    1.712680e-01  5.937841e-03    1.100037e-01  8.832959e-01    0.000000e+00  0.000000e+00    0.000000e+00  0.000000e+00
8.481852e+08    1.688963e-01 -4.551865e-05    1.417180e-01  8.787589e-01    0.000000e+00  0.000000e+00    0.000000e+00  0.000000e+00
8.543179e+08    1.662700e-01 -5.831138e-03    1.732745e-01  8.731354e-01    0.000000e+00  0.000000e+00    0.000000e+00  0.000000e+00
8.604506e+08    1.634074e-01 -1.140718e-02    2.046459e-01  8.664299e-01    0.000000e+00  0.000000e+00    0.000000e+00  0.000000e+00
8.665832e+08    1.603276e-01 -1.676410e-02    2.358052e-01  8.586461e-01    0.000000e+00  0.000000e+00    0.000000e+00  0.000000e+00
8.727159e+08    1.570493e-01 -2.189464e-02    2.667247e-01  8.497862e-01    0.000000e+00  0.000000e+00    0.000000e+00  0.000000e+00
8.788486e+08    1.535912e-01 -2.679366e-02    2.973763e-01  8.398515e-01    0.000000e+00  0.000000e+00    0.000000e+00  0.000000e+00
8.849812e+08    1.499713e-01 -3.145805e-02    3.277305e-01  8.288425e-01    0.000000e+00  0.000000e+00    0.000000e+00  0.000000e+00
8.911139e+08    1.462067e-01 -3.588650e-02    3.577563e-01  8.167593e-01    0.000000e+00  0.000000e+00    0.000000e+00  0.000000e+00
8.972466e+08    1.423134e-01 -4.007929e-02    3.874210e-01  8.036016e-01    0.000000e+00  0.000000e+00    0.000000e+00  0.000000e+00
9.033792e+08    1.383064e-01 -4.403801e-02    4.166901e-01  7.893691e-01    0.000000e+00  0.000000e+00    0.000000e+00  0.000000e+00
9.095119e+08    1.341989e-01 -4.776528e-02    4.455268e-01  7.740623e-01    0.000000e+00  0.000000e+00    0.000000e+00  0.000000e+00
9.156446e+08    1.300031e-01 -5.126446e-02    4.738921e-01  7.576827e-01    0.000000e+00  0.000000e+00    0.000000e+00  0.000000e+00
9.217772e+08    1.257292e-01 -5.453937e-02    5.017448e-01  7.402328e-01    0.000000e+00  0.000000e+00    0.000000e+00  0.000000e+00
9.279099e+08    1.213864e-01 -5.759394e-02    5.290417e-01  7.217174e-01    0.000000e+00  0.000000e+00    0.000000e+00  0.000000e+00
9.340426e+08    1.169823e-01 -6.043199e-02    5.557376e-01  7.021435e-01    0.000000e+00  0.000000e+00    0.000000e+00  0.000000e+00
9.401752e+08    1.125232e-01 -6.305692e-02    5.817854e-01  6.815206e-01    0.000000e+00  0.000000e+00    0.000000e+00  0.000000e+00
9.463079e+08    1.080145e-01 -6.547149e-02    6.071369e-01  6.598615e-01    0.000000e+00  0.000000e+00    0.000000e+00  0.000000e+00
9.524406e+08    1.034606e-01 -6.767765e-02    6.317427e-01  6.371822e-01    0.000000e+00  0.000000e+00    0.000000e+00  0.000000e+00
9.585732e+08    9.886542e-02 -6.967637e-02    6.555525e-01  6.135024e-01    0.000000e+00  0.000000e+00    0.000000e+00  0.000000e+00
9.647059e+08    9.423236e-02 -7.146752e-02    6.785161e-01  5.888457e-01    0.000000e+00  0.000000e+00    0.000000e+00  0.000000e+00
9.708385e+08    8.956485e-02 -7.304986e-02    7.005835e-01  5.632395e-01    0.000000e+00  0.000000e+00    0.000000e+00  0.000000e+00
9.769712e+08    8.486652e-02 -7.442098e-02    7.217055e-01  5.367152e-01    0.000000e+00  0.000000e+00    0.000000e+00  0.000000e+00
9.831039e+08    8.014149e-02 -7.557743e-02    7.418339e-01  5.093081e-01    0.000000e+00  0.000000e+00    0.000000e+00  0.000000e+00
9.892365e+08    7.539465e-02 -7.651474e-02    7.609225e-01  4.810574e-01    0.000000e+00  0.000000e+00    0.000000e+00  0.000000e+00
9.953692e+08    7.063192e-02 -7.722766e-02    7.789272e-01  4.520059e-01    0.000000e+00  0.000000e+00    0.000000e+00  0.000000e+00
1.001502e+09    6.586045e-02 -7.771029e-02    7.958067e-01  4.221997e-01    0.000000e+00  0.000000e+00    0.000000e+00  0.000000e+00
1.007635e+09    6.108883e-02 -7.795638e-02    8.115223e-01  3.916879e-01    0.000000e+00  0.000000e+00    0.000000e+00  0.000000e+00
