!---------------------------------------------------------------------
! ZVRE, 3.52
!---------------------------------------------------------------------
! symbol freq-unit parameter-type data-format keyword impedance-ohm
#        HZ        S              RI          R       50
!---------------------------------------------------------------------
! freq                reS11          imS11           reS21          imS21           reS12          imS12           reS22          imS22           
  1.00000000000E+09  0.0363736      -0.055211       0.740549        0.583122       0.740811        0.5819         0.0360695      -0.0462635    
  1.00500000000E+09  0.0331232      -0.0528207      0.758055        0.561146       0.757948        0.559945       0.033083       -0.0437613    
  1.01000000000E+09  0.0301958      -0.0501892      0.773794        0.538562       0.77433         0.537432       0.0301475      -0.0412873    
  1.01500000000E+09  0.0275215      -0.0474671      0.789674        0.51516        0.790078        0.514363       0.0275802      -0.0386441    
  1.02000000000E+09  0.0251017      -0.0445795      0.804857        0.490853       0.804901        0.490855       0.0250183      -0.0359059    
  1.02500000000E+09  0.022895       -0.0415133      0.819203        0.467172       0.819122        0.466838       0.0227011      -0.0331765    
  1.03000000000E+09  0.0208266      -0.0384585      0.832409        0.442642       0.83237         0.441534       0.0205411      -0.0303192    
  1.03500000000E+09  0.0190613      -0.0351802      0.845375        0.417552       0.845016        0.416958       0.0186064      -0.0273325    
  1.04000000000E+09  0.0175582      -0.0319733      0.857352        0.391699       0.856847        0.391356       0.0167947      -0.0244054    
  1.04500000000E+09  0.0162152      -0.0287304      0.868178        0.36649        0.8682          0.365864       0.0152491      -0.0213513    
  1.05000000000E+09  0.0151039      -0.0252315      0.878549        0.339686       0.878397        0.339547       0.0139477      -0.0182139    
  1.05500000000E+09  0.014249       -0.0217901      0.888165        0.313013       0.888282        0.312466       0.0128314      -0.015108     
  1.06000000000E+09  0.0136237      -0.0183045      0.897316        0.286519       0.897388        0.285906       0.0118343      -0.0119864    
  1.06500000000E+09  0.0131193      -0.0147561      0.905291        0.259432       0.905104        0.258844       0.0111922      -0.00865146   
  1.07000000000E+09  0.0129328      -0.0112109      0.911918        0.232173       0.912448        0.232262       0.0106542      -0.00546175   
  1.07500000000E+09  0.0127593      -0.00772048     0.918503        0.203886       0.919026        0.204638       0.0103823      -0.0021891    
  1.08000000000E+09  0.0128081      -0.00412281     0.924459        0.176392       0.924136        0.176696       0.0103595       0.00114815   
  1.08500000000E+09  0.0130713      -0.000487855    0.928986        0.147999       0.928895        0.148267       0.010468        0.0044504    
  1.09000000000E+09  0.0135469       0.00309694     0.932828        0.120242       0.932836        0.120373       0.0109326       0.00784172   
  1.09500000000E+09  0.0141422       0.00659672     0.935877        0.0925581      0.935348        0.0921808      0.0116898       0.0111264    
  1.10000000000E+09  0.0149783       0.0101384      0.937758        0.0639646      0.937315        0.0641647      0.0126766       0.0144428    
  1.10500000000E+09  0.0159661       0.0136529      0.939158        0.0355427      0.938449        0.0358369      0.0138088       0.0176739    
  1.11000000000E+09  0.0171079       0.0170797      0.939371        0.00702987     0.938688        0.00681019     0.0152182       0.0208685    
  1.11500000000E+09  0.0184815       0.0204087      0.938487       -0.0215304      0.938098       -0.021436       0.0168266       0.0238897    
  1.12000000000E+09  0.0200068       0.0237339      0.936648       -0.0500545      0.936326       -0.0496961      0.0186786       0.026859     
  1.12500000000E+09  0.0217237       0.0267926      0.933783       -0.0779605      0.934012       -0.0775606      0.0206636       0.0297594    
  1.13000000000E+09  0.0234857       0.0298423      0.931126       -0.105943       0.931089       -0.105363       0.0228864       0.0325297    
  1.13500000000E+09  0.0256607       0.0327353      0.926714       -0.134233       0.92744        -0.13365        0.0252461       0.035186     
  1.14000000000E+09  0.0278171       0.0355106      0.921723       -0.16207        0.922324       -0.161174       0.0278153       0.0376713    
  1.14500000000E+09  0.0302526       0.0381124      0.91645        -0.189784       0.916859       -0.18909        0.0305091       0.0399943    
  1.15000000000E+09  0.0328148       0.0405385      0.91015        -0.216885       0.910358       -0.215947       0.033243        0.0421424    
  1.15500000000E+09  0.0355537       0.0428068      0.902976       -0.243798       0.903719       -0.243552       0.0361615       0.0441924    
  1.16000000000E+09  0.0384979       0.044915       0.895187       -0.271185       0.895053       -0.271552       0.0392155       0.0458739    
  1.16500000000E+09  0.0416546       0.046729       0.886474       -0.29916        0.886329       -0.298296       0.0423151       0.0474828    
  1.17000000000E+09  0.0448428       0.0483205      0.87598        -0.325927       0.875979       -0.325245       0.045396        0.0488971    
  1.17500000000E+09  0.0482368       0.0496514      0.864885       -0.352647       0.865625       -0.351614       0.0485724       0.0501129    
  1.18000000000E+09  0.0518213       0.0507624      0.853358       -0.378046       0.853901       -0.378292       0.0517521       0.0511897    
  1.18500000000E+09  0.0553633       0.0514968      0.840977       -0.404164       0.84135        -0.403034       0.0548619       0.0519453    
  1.19000000000E+09  0.0591033       0.0520385      0.827901       -0.428836       0.827886       -0.428052       0.0580801       0.0526719    
  1.19500000000E+09  0.0628588       0.0522449      0.81376        -0.453055       0.813704       -0.453096       0.0612526       0.0530842    
  1.20000000000E+09  0.0664626       0.0522378      0.798626       -0.47724        0.799604       -0.476867       0.0643881       0.053402     
  1.20500000000E+09  0.0703646       0.0518936      0.783296       -0.501091       0.784201       -0.500777       0.0675625       0.0534782    
  1.21000000000E+09  0.0741262       0.0513934      0.767503       -0.524737       0.768476       -0.524231       0.0707094       0.0535071    
  1.21500000000E+09  0.0779246       0.0507025      0.750836       -0.548241       0.75194        -0.547269       0.0738203       0.0533227    
  1.22000000000E+09  0.0816181       0.0496856      0.733614       -0.570609       0.734912       -0.570218       0.0770004       0.0528089    
  1.22500000000E+09  0.0852949       0.0484336      0.715596       -0.592244       0.716014       -0.591979       0.0800305       0.0522681    
  1.23000000000E+09  0.0888952       0.0469366      0.696185       -0.614126       0.697131       -0.613118       0.0830976       0.0514679    
  1.23500000000E+09  0.0923177       0.0452043      0.6759         -0.634086       0.677101       -0.63367        0.0861703       0.0505116    
  1.24000000000E+09  0.0957967       0.0434913      0.655568       -0.653397       0.65683        -0.653378       0.0892473       0.049294     
  1.24500000000E+09  0.0989921       0.0413712      0.634582       -0.67262        0.635726       -0.673087       0.092112        0.0479123    
  1.25000000000E+09  0.102177        0.0391787      0.613534       -0.691284       0.615034       -0.690805       0.0949814       0.0464011    
  1.25500000000E+09  0.105068        0.0367158      0.591951       -0.708753       0.593704       -0.708637       0.0977652       0.0445478    
  1.26000000000E+09  0.107773        0.0341523      0.570267       -0.72549        0.571828       -0.726484       0.100495        0.0426097    
  1.26500000000E+09  0.110462        0.0316133      0.547812       -0.742558       0.550026       -0.743271       0.103133        0.0405565    
  1.27000000000E+09  0.112897        0.0289405      0.525222       -0.759849       0.52679        -0.759784       0.105622        0.0381966    
  1.27500000000E+09  0.11542         0.0259583      0.50151        -0.775777       0.502917       -0.776195       0.108099        0.0356826    
  1.28000000000E+09  0.117716        0.0226892      0.47558        -0.792066       0.478902       -0.792377       0.110651        0.0329516    
  1.28500000000E+09  0.119642        0.0194685      0.450252       -0.806336       0.453383       -0.806655       0.112912        0.0301839    
  1.29000000000E+09  0.121461        0.0161891      0.42431        -0.820102       0.427595       -0.819768       0.114959        0.0270416    
  1.29500000000E+09  0.122998        0.0129228      0.397235       -0.831628       0.400621       -0.832119       0.116866        0.0239388    
  1.30000000000E+09  0.124459        0.00951829     0.369419       -0.843071       0.374315       -0.842881       0.118702        0.0206327    
  1.30500000000E+09  0.125614        0.00605845     0.343346       -0.852457       0.347189       -0.853004       0.120283        0.0172165    
  1.31000000000E+09  0.126617        0.00239051     0.316763       -0.861532       0.320662       -0.862079       0.121773        0.0135739    
  1.31500000000E+09  0.127453       -0.00111098     0.290007       -0.869662       0.29461        -0.870382       0.122995        0.00996456   
  1.32000000000E+09  0.127994       -0.00481064     0.263866       -0.877711       0.267764       -0.878382       0.123939        0.0060813    
  1.32500000000E+09  0.128563       -0.00847936     0.23683        -0.885874       0.240815       -0.886188       0.1249          0.00243051   
  1.33000000000E+09  0.128877       -0.0122237      0.209485       -0.89292        0.213664       -0.893674       0.125626       -0.00125604   
  1.33500000000E+09  0.129026       -0.0159103      0.181556       -0.898819       0.186138       -0.900294       0.126099       -0.00501146   
  1.34000000000E+09  0.128904       -0.0197986      0.152592       -0.903886       0.157504       -0.9059         0.12646        -0.00888324   
  1.34500000000E+09  0.128798       -0.023746       0.123965       -0.909139       0.128122       -0.910464       0.126621       -0.01283      
  1.35000000000E+09  0.128247       -0.0275536      0.0949311      -0.911943       0.0993404      -0.914448       0.126593       -0.01665      
  1.35500000000E+09  0.127536       -0.0315356      0.0648301      -0.91396        0.0697614      -0.916236       0.126175       -0.0205769    
  1.36000000000E+09  0.126623       -0.0354197      0.0360372      -0.914701       0.0415937      -0.917701       0.125731       -0.0243633    
  1.36500000000E+09  0.125581       -0.0391803      0.0078263      -0.914108       0.0126615      -0.91766        0.124929       -0.0280531    
  1.37000000000E+09  0.124248       -0.0431619     -0.0211685      -0.913369      -0.0165492      -0.916918       0.124011       -0.0318651    
  1.37500000000E+09  0.122833       -0.0468575     -0.0487948      -0.912146      -0.0448038      -0.915707       0.122783       -0.0354679    
  1.38000000000E+09  0.121385       -0.0506652     -0.0773926      -0.909723      -0.0735977      -0.914086       0.121606       -0.0389162    
  1.38500000000E+09  0.119489       -0.05428       -0.105724       -0.907389      -0.10295        -0.911653       0.120045       -0.0423472    
  1.39000000000E+09  0.117517       -0.058118      -0.134334       -0.903995      -0.132301       -0.908668       0.118541       -0.0459293    
  1.39500000000E+09  0.115275       -0.0615017     -0.163881       -0.900021      -0.161963       -0.904784       0.116621       -0.0491648    
  1.40000000000E+09  0.112784       -0.0648648     -0.193623       -0.893908      -0.191696       -0.898497       0.114554       -0.0524142    
  1.40500000000E+09  0.110029       -0.0679896     -0.222693       -0.88719       -0.221025       -0.89124        0.112287       -0.0552879    
  1.41000000000E+09  0.107207       -0.0709378     -0.252553       -0.878475      -0.25066        -0.882546       0.109983       -0.058286     
  1.41500000000E+09  0.104325       -0.0737517     -0.280808       -0.868391      -0.279155       -0.872717       0.10743        -0.0610541    
  1.42000000000E+09  0.101234       -0.0762646     -0.308311       -0.857739      -0.306413       -0.861765       0.10468        -0.063683     
  1.42500000000E+09  0.0979449      -0.0786954     -0.335396       -0.846039      -0.333395       -0.85045        0.101983       -0.0662207    
  1.43000000000E+09  0.0946003      -0.0808002     -0.361099       -0.833811      -0.360314       -0.837953       0.0988819      -0.0686217    
  1.43500000000E+09  0.0908751      -0.0827229     -0.387217       -0.821712      -0.385574       -0.826006       0.0956095      -0.0706712    
  1.44000000000E+09  0.0872743      -0.0844223     -0.411848       -0.808497      -0.411407       -0.814107       0.0924408      -0.0727286    
  1.44500000000E+09  0.0835892      -0.0857072     -0.437659       -0.795789      -0.43783        -0.800366       0.0890979      -0.0747402    
  1.45000000000E+09  0.0798556      -0.0869383     -0.463502       -0.782736      -0.463444       -0.786941       0.0856721      -0.076248     
  1.45500000000E+09  0.0760688      -0.0878871     -0.489059       -0.767965      -0.489495       -0.771895       0.0820853      -0.0776622    
  1.46000000000E+09  0.0719633      -0.0886205     -0.514351       -0.751567      -0.515026       -0.754802       0.0784364      -0.0787003    
  1.46500000000E+09  0.0679645      -0.0887801     -0.539631       -0.733857      -0.539383       -0.737174       0.0747655      -0.0797013    
  1.47000000000E+09  0.0638779      -0.0888814     -0.564402       -0.714613      -0.56374        -0.717184       0.0710018      -0.0803002    
  1.47500000000E+09  0.0599971      -0.0886236     -0.587244       -0.694476      -0.585952       -0.69754        0.067474       -0.080551     
  1.48000000000E+09  0.0558756      -0.0882988     -0.609612       -0.673299      -0.607861       -0.677041       0.0635732      -0.0808396    
  1.48500000000E+09  0.0520976      -0.0877654     -0.630796       -0.651887      -0.629863       -0.6554         0.0600944      -0.0808166    
  1.49000000000E+09  0.0479526      -0.0870625     -0.650949       -0.630287      -0.650032       -0.634209       0.0565158      -0.0806024    
  1.49500000000E+09  0.0441789      -0.085999      -0.670501       -0.608458      -0.669637       -0.612943       0.0529563      -0.0800501    
  1.50000000000E+09  0.0403147      -0.0846671     -0.689083       -0.586468      -0.689505       -0.590336       0.0494441      -0.0793254    
  1.50500000000E+09  0.0365487      -0.0832366     -0.707856       -0.563755      -0.708459       -0.567969       0.0459837      -0.0783941    
  1.51000000000E+09  0.0331365      -0.0815653     -0.726999       -0.540598      -0.726924       -0.544381       0.0428067      -0.0773007    
  1.51500000000E+09  0.0295374      -0.0797443     -0.745131       -0.516282      -0.74496        -0.519472       0.0396896      -0.0758383    
  1.52000000000E+09  0.0261766      -0.07791       -0.762932       -0.491145      -0.762329       -0.494          0.0366426      -0.0742691    
  1.52500000000E+09  0.022981       -0.0756895     -0.780034       -0.463882      -0.779087       -0.467384       0.0335242      -0.0725816    
  1.53000000000E+09  0.0200477      -0.0731805     -0.794915       -0.436376      -0.794763       -0.439437       0.0306621      -0.0708361    
  1.53500000000E+09  0.0170085      -0.0706891     -0.809496       -0.407901      -0.808959       -0.412059       0.02797        -0.0685465    
  1.54000000000E+09  0.0144522      -0.0679151     -0.822003       -0.378991      -0.822089       -0.383562       0.0253993      -0.0660046    
  1.54500000000E+09  0.0122032      -0.0651529     -0.833644       -0.351256      -0.834935       -0.35516        0.0230929      -0.0636652    
  1.55000000000E+09  0.0101972      -0.0620034     -0.844043       -0.321879      -0.846097       -0.326008       0.0209942      -0.0608692    
  1.55500000000E+09  0.00824371     -0.0588168     -0.853589       -0.292985      -0.856679       -0.296509       0.0190064      -0.0578758    
  1.56000000000E+09  0.00684891     -0.0555681     -0.863497       -0.263206      -0.86671        -0.266905       0.0173631      -0.0548625    
  1.56500000000E+09  0.00559538     -0.0522848     -0.872069       -0.233303      -0.874873       -0.236013       0.0156951      -0.0515952    
  1.57000000000E+09  0.00456336     -0.0486872     -0.880044       -0.202384      -0.883229       -0.205612       0.0142619      -0.0480448    
  1.57500000000E+09  0.00400333     -0.0451036     -0.88693        -0.171787      -0.889407       -0.174329       0.0132859      -0.0446671    
  1.58000000000E+09  0.00372109     -0.0414007     -0.89283        -0.140527      -0.894994       -0.142194       0.0123389      -0.0409885    
  1.58500000000E+09  0.00385495     -0.03751       -0.896686       -0.108214      -0.898363       -0.110276       0.0118712      -0.0370686    
  1.59000000000E+09  0.00440624     -0.0336194     -0.899966       -0.0760178     -0.900891       -0.0779585      0.0117512      -0.0330446    
  1.59500000000E+09  0.00529709     -0.0297207     -0.9009         -0.0439253     -0.902259       -0.0459176      0.0119635      -0.0289876    
  1.60000000000E+09  0.00653996     -0.025823      -0.90144        -0.0116681     -0.902398       -0.0134427      0.0122747      -0.0250645    
  1.60500000000E+09  0.00816793     -0.0218061     -0.90014         0.0210661     -0.901762        0.0190449      0.0131692      -0.0207757    
  1.61000000000E+09  0.0101176      -0.0177939     -0.897818        0.053637      -0.899559        0.0512844      0.0144269      -0.0165802    
  1.61500000000E+09  0.0125585      -0.0139591     -0.894335        0.085964      -0.896512        0.0833192      0.0160199      -0.0124748    
  1.62000000000E+09  0.0152654      -0.0101147     -0.889814        0.1181        -0.892688        0.116018       0.0179906      -0.00839115   
  1.62500000000E+09  0.0184457      -0.00646157    -0.88441         0.150144      -0.886796        0.14822        0.0203744      -0.00436436   
  1.63000000000E+09  0.0219338      -0.00276356    -0.877283        0.181874      -0.880207        0.180233       0.0232172      -0.000562152  
  1.63500000000E+09  0.0257207       0.000768643   -0.8693          0.214039      -0.872036        0.211783       0.0265161       0.00306296   
  1.64000000000E+09  0.0298533       0.0041645     -0.860287        0.245233      -0.863009        0.243042       0.0302321       0.00653117   
  1.64500000000E+09  0.0344346       0.00741812    -0.849712        0.27643       -0.852523        0.274596       0.0343248       0.00973516   
  1.65000000000E+09  0.0392975       0.01028       -0.838051        0.307901      -0.842034        0.30523        0.0387257       0.0125903    
  1.65500000000E+09  0.0445468       0.013178      -0.825917        0.3393        -0.829373        0.336854       0.0435434       0.0151316    
  1.66000000000E+09  0.0501808       0.0156276     -0.812155        0.369018      -0.815592        0.367443       0.0488233       0.0174695    
  1.66500000000E+09  0.0561219       0.0176899     -0.797439        0.399629      -0.800334        0.398567       0.0544935       0.0192348    
